
T12B0 000:078 SEGGER J-Link V4.68a Log File (0001ms, 0078ms total)
T12B0 000:078 DLL Compiled: Apr 12 2013 13:26:50 (0001ms, 0078ms total)
T12B0 000:078 Logging started @ 2015-05-21 16:47 (0001ms, 0078ms total)
T12B0 000:079 JLINK_SetWarnOutHandler(...) (0000ms, 0078ms total)
T12B0 000:079 JLINK_OpenEx(...)
Firmware: J-Link ARM V8 compiled Nov 25 2013 19:20:08
Hardware: V8.00
S/N: 17935099
Feature(s): RDI,FlashDL,FlashBP,JFlash  returns O.K. (0013ms, 0091ms total)
T12B0 000:092 JLINK_SetErrorOutHandler(...) (0000ms, 0091ms total)
T12B0 000:092 JLINK_ExecCommand("ProjectFile = "C:\workspace\keil\TRSPLUS2Board\pptp_lib_project\JLinkSettings.ini"", ...)  returns 0x00 (0000ms, 0091ms total)
T12B0 000:092 JLINK_ExecCommand("Device = STM32F103RC", ...)
                JLINK_AddMirrorAreaEx(Addr = 0x00000000, Size = 0x00000000) (0000ms, 0000ms total)
              Device "STM32F103RC" selected (256 KB flash, 48 KB RAM).  returns 0x00 (0001ms, 0092ms total)
T12B0 000:093 JLINK_ExecCommand("DisableConnectionTimeout", ...)  returns 0x00 (0000ms, 0092ms total)
T12B0 000:093 JLINK_GetHardwareVersion()  returns 0x13880 (0000ms, 0092ms total)
T12B0 000:093 JLINK_GetDLLVersion()  returns 46801 (0000ms, 0092ms total)
T12B0 000:093 JLINK_GetFirmwareString(...) (0000ms, 0092ms total)
T12B0 000:093 JLINK_GetDLLVersion()  returns 46801 (0000ms, 0092ms total)
T12B0 000:093 JLINK_GetCompileDateTime() (0000ms, 0092ms total)
T12B0 000:093 JLINK_GetFirmwareString(...) (0000ms, 0092ms total)
T12B0 000:093 JLINK_GetHardwareVersion()  returns 0x13880 (0000ms, 0092ms total)
T12B0 000:094 JLINK_TIF_Select(JLINKARM_TIF_JTAG)  returns 0x00 (0000ms, 0092ms total)
T12B0 000:094 JLINK_SetSpeed(2000) (0000ms, 0092ms total)
T12B0 000:094 JLINK_GetIdData(...) >0x2F8 JTAG>TotalIRLen = 9, IRPrint = 0x0011 >0x30 JTAG> >0x210 JTAG> >0x40 JTAG> >0x40 JTAG> >0x40 JTAG> >0x30 JTAG> >0x40 JTAG> >0x40 JTAG> >0x40 JTAG> >0x40 JTAG> >0x40 JTAG> >0x40 JTAG> >0x40 JTAG> >0x40 JTAG> >0x2F8 JTAG>TotalIRLen = 9, IRPrint = 0x0011 >0x30 JTAG> >0x210 JTAG> >0x80 JTAG> >0x40 JTAG> >0x40 JTAG> >0x50 JTAG> >0x40 JTAG> >0x40 JTAG> >0x40 JTAG> >0x50 JTAG> >0x40 JTAG> >0x40 JTAG> >0x40 JTAG> >0x30 JTAG> >0x40 JTAG> >0x50 JTAG> >0x40 JTAG>
 >0x38 JTAG> >0x80 JTAG> >0x40 JTAG> >0x40 JTAG> >0x50 JTAG> >0x40 JTAG> >0x40 JTAG> >0x40 JTAG> >0x50 JTAG> >0x40 JTAG> >0x40 JTAG> >0x30 JTAG> >0x40 JTAG> >0x40 JTAG> >0x40 JTAG> >0x40 JTAG> >0x40 JTAG> >0x50 JTAG> >0x40 JTAG> >0x80 JTAG> >0x40 JTAG> >0x30 JTAG> >0x40 JTAG> >0x40 JTAG> >0x40 JTAG> >0x40 JTAG> >0x40 JTAG> >0x50 JTAG> >0x40 JTAG> >0x80 JTAG> >0x40 JTAG> >0x30 JTAG> >0x40 JTAG> >0x50 JTAG> >0x40 JTAG> >0x40 JTAG> >0x40 JTAG> >0x30 JTAG> >0x40 JTAG> >0x50 JTAG> >0x40 JTAG>
Found Cortex-M3 r1p1, Little endian. >0x50 JTAG> >0x50 JTAG> >0x40 JTAG> >0x40 JTAG> >0x30 JTAG> >0x30 JTAG> >0x50 JTAG> >0x40 JTAG> >0x80 JTAG> >0x40 JTAG> >0x30 JTAG> >0x40 JTAG> >0x50 JTAG> >0x40 JTAG> >0x40 JTAG> >0x40 JTAG> >0x30 JTAG> >0x40 JTAG> >0x50 JTAG> >0x40 JTAG>TPIU fitted. >0x40 JTAG> >0x40 JTAG> >0x30 JTAG> >0x40 JTAG> >0x50 JTAG> >0x40 JTAG>ETM fitted. >0x40 JTAG> >0x40 JTAG> >0x30 JTAG> >0x40 JTAG> >0x50 JTAG> >0x40 JTAG> >0x40 JTAG> >0x40 JTAG> >0x30 JTAG> >0x40 JTAG> >0x50 JTAG>
 >0x40 JTAG>FPUnit: 6 code (BP) slots and 2 literal slots >0x40 JTAG> >0x40 JTAG> >0x30 JTAG> >0x40 JTAG> >0x50 JTAG> >0x40 JTAG> >0x40 JTAG> >0x40 JTAG> >0x30 JTAG> >0x40 JTAG> >0x50 JTAG> >0x40 JTAG> >0x40 JTAG> >0x40 JTAG> >0x30 JTAG> >0x30 JTAG> >0x50 JTAG> >0x40 JTAG> ScanLen=9 NumDevices=2 aId[0]=0x3BA00477 aIrRead[0]=0 aScanLen[0]=0 aScanRead[0]=0 (0086ms, 0178ms total)
T12B0 000:180 JLINK_JTAG_GetDeviceID(DeviceIndex = 0)  returns 0x3BA00477 (0000ms, 0178ms total)
T12B0 000:180 JLINK_JTAG_GetDeviceInfo(DeviceIndex = 0)  returns 0x00 (0000ms, 0178ms total)
T12B0 000:180 JLINK_JTAG_GetDeviceID(DeviceIndex = 1)  returns 0x6414041 (0000ms, 0178ms total)
T12B0 000:180 JLINK_JTAG_GetDeviceInfo(DeviceIndex = 1)  returns 0x00 (0000ms, 0178ms total)
T12B0 000:180 JLINK_GetDeviceFamily()  returns 3 (0000ms, 0178ms total)
T12B0 000:181 JLINK_ReadMem (0xE00FFFF0, 0x0010 Bytes, ...) -- CPU is running -- CPU_ReadMem(16 bytes @ 0xE00FFFF0) -- Data:  0D 00 00 00 10 00 00 00 05 00 00 00 B1 00 00 00  returns 0x00 (0005ms, 0183ms total)
T12B0 000:186 JLINK_ReadMem (0xE00FFFD0, 0x0020 Bytes, ...) -- CPU is running -- CPU_ReadMem(32 bytes @ 0xE00FFFD0) -- Data:  00 00 00 00 00 00 00 00 00 00 00 00 00 00 00 00 ...  returns 0x00 (0001ms, 0184ms total)
T12B0 000:187 JLINK_ReadMem (0xE00FF000, 0x0018 Bytes, ...) -- CPU is running -- CPU_ReadMem(24 bytes @ 0xE00FF000) -- Data:  03 F0 F0 FF 03 20 F0 FF 03 30 F0 FF 03 10 F0 FF ...  returns 0x00 (0002ms, 0186ms total)
T12B0 000:189 JLINK_ReadMemU32(0xE000ED00, 0x0001 Items, ...) -- CPU is running -- CPU_ReadMem(4 bytes @ 0xE000ED00) -- Data:  31 C2 1F 41  returns 0x01 (0001ms, 0187ms total)
T12B0 000:190 JLINK_SetResetType(JLINKARM_RESET_TYPE_NORMAL)  returns JLINKARM_RESET_TYPE_NORMAL (0000ms, 0187ms total)
T12B0 000:190 JLINK_Reset() >0x88 JTAG> >0x80 JTAG> >0x40 JTAG> >0x40 JTAG> >0x50 JTAG> >0x40 JTAG> >0x40 JTAG> >0x40 JTAG> >0x50 JTAG> >0x40 JTAG> >0x40 JTAG> >0x30 JTAG> >0x40 JTAG> >0x40 JTAG> >0x40 JTAG> >0x40 JTAG> >0x40 JTAG> >0x50 JTAG> >0x40 JTAG> >0x80 JTAG> >0x40 JTAG> >0x30 JTAG> >0x40 JTAG> >0x40 JTAG> >0x40 JTAG> >0x40 JTAG> >0x40 JTAG> >0x50 JTAG> >0x40 JTAG> >0x80 JTAG> >0x40 JTAG> >0x30 JTAG> >0x40 JTAG> >0x50 JTAG> >0x40 JTAG> >0x40 JTAG> >0x40 JTAG> >0x30 JTAG> >0x40 JTAG> >0x50 JTAG>
 >0x40 JTAG>Found Cortex-M3 r1p1, Little endian. >0x50 JTAG> >0x50 JTAG> >0x40 JTAG> >0x40 JTAG> >0x30 JTAG> >0x30 JTAG> >0x50 JTAG> >0x40 JTAG> >0x80 JTAG> >0x40 JTAG> >0x30 JTAG> >0x40 JTAG> >0x50 JTAG> >0x40 JTAG> >0x40 JTAG> >0x40 JTAG> >0x30 JTAG> >0x40 JTAG> >0x50 JTAG> >0x40 JTAG>TPIU fitted. >0x40 JTAG> >0x40 JTAG> >0x30 JTAG> >0x40 JTAG> >0x50 JTAG> >0x40 JTAG>ETM fitted. >0x40 JTAG> >0x40 JTAG> >0x30 JTAG> >0x40 JTAG> >0x50 JTAG> >0x40 JTAG> >0x40 JTAG> >0x40 JTAG> >0x30 JTAG> >0x40 JTAG>
 >0x50 JTAG> >0x40 JTAG>FPUnit: 6 code (BP) slots and 2 literal slots >0x40 JTAG> >0x40 JTAG> >0x30 JTAG> >0x40 JTAG> >0x50 JTAG> >0x40 JTAG> >0x40 JTAG> >0x40 JTAG> >0x30 JTAG> >0x40 JTAG> >0x50 JTAG> >0x40 JTAG> >0x40 JTAG> >0x40 JTAG> >0x30 JTAG> >0x30 JTAG> >0x50 JTAG> >0x40 JTAG> -- CPU is running -- CPU_WriteMem(4 bytes @ 0xE000EDF0) -- CPU is running -- CPU_WriteMem(4 bytes @ 0xE000EDFC) -- CPU is running -- CPU_WriteMem(4 bytes @ 0xE000ED0C) -- CPU is running -- CPU_ReadMem(4 bytes @ 0xE000EDF0)
 -- CPU is running -- CPU_ReadMem(4 bytes @ 0xE000EDF0) -- CPU is running -- CPU_WriteMem(4 bytes @ 0xE000EDF0) -- CPU is running -- CPU_WriteMem(4 bytes @ 0xE000EDFC) -- CPU is running -- CPU_ReadMem(4 bytes @ 0xE000EDF0) >0xD0 JTAG> >0x40 JTAG> >0x30 JTAG> >0x40 JTAG> >0x50 JTAG> >0x40 JTAG> -- CPU_WriteMem(4 bytes @ 0xE000EDFC) -- CPU_WriteMem(4 bytes @ 0xE0001028) -- CPU_WriteMem(4 bytes @ 0xE0001038) -- CPU_WriteMem(4 bytes @ 0xE0001048) -- CPU_WriteMem(4 bytes @ 0xE0001058)
 -- CPU_WriteMem(4 bytes @ 0xE0002000) (0112ms, 0299ms total)
T12B0 000:302 JLINK_ReadReg(R15)  returns 0x08000144 (0001ms, 0300ms total)
T12B0 000:303 JLINK_ReadReg(XPSR)  returns 0x01000000 (0000ms, 0300ms total)
T12B0 000:303 JLINK_Halt()  returns 0x00 (0000ms, 0300ms total)
T12B0 000:303 JLINK_IsHalted()  returns TRUE (0000ms, 0300ms total)
T12B0 000:303 JLINK_ReadMemU32(0xE000EDF0, 0x0001 Items, ...) -- CPU_ReadMem(4 bytes @ 0xE000EDF0) -- Data:  03 00 03 00  returns 0x01 (0001ms, 0301ms total)
T12B0 000:304 JLINK_WriteU32(0xE000EDF0, 0xA05F0003) -- CPU_WriteMem(4 bytes @ 0xE000EDF0)  returns 0x00 (0001ms, 0302ms total)
T12B0 000:305 JLINK_WriteU32(0xE000EDFC, 0x01000000) -- CPU_WriteMem(4 bytes @ 0xE000EDFC)  returns 0x00 (0001ms, 0303ms total)
T12B0 000:307 JLINK_GetHWStatus(...)  returns 0x00 (0001ms, 0304ms total)
T12B0 000:308 JLINK_GetNumBPUnits(Type = 0xFFFFFF00)  returns 0x06 (0000ms, 0304ms total)
T12B0 000:308 JLINK_GetNumBPUnits(Type = 0xF0)  returns 0x2000 (0000ms, 0304ms total)
T12B0 000:308 JLINK_GetNumWPUnits()  returns 0x04 (0000ms, 0304ms total)
T12B0 000:309 JLINK_GetSpeed()  returns 0x7D0 (0000ms, 0304ms total)
T12B0 000:309 JLINK_ReadMemU32(0xE000E004, 0x0001 Items, ...) -- CPU_ReadMem(4 bytes @ 0xE000E004) -- Data:  01 00 00 00  returns 0x01 (0002ms, 0306ms total)
T12B0 000:311 JLINK_ReadMemU32(0xE000E004, 0x0001 Items, ...) -- CPU_ReadMem(4 bytes @ 0xE000E004) -- Data:  01 00 00 00  returns 0x01 (0001ms, 0307ms total)
T12B0 000:312 JLINK_WriteMem(0xE0001000, 0x001C Bytes, ...) -- Data:  01 00 00 00 00 00 00 00 00 00 00 00 00 00 00 00 ... -- CPU_WriteMem(28 bytes @ 0xE0001000)  returns 0x1C (0001ms, 0308ms total)
T12B0 000:313 JLINK_ReadMem (0xE0001000, 0x001C Bytes, ...) -- CPU_ReadMem(28 bytes @ 0xE0001000) -- Data:  01 00 00 40 00 00 00 00 00 00 00 00 00 00 00 00 ...  returns 0x00 (0002ms, 0310ms total)
T12B0 000:315 JLINK_ReadReg(R15)  returns 0x08000144 (0000ms, 0310ms total)
T12B0 000:315 JLINK_ReadReg(XPSR)  returns 0x01000000 (0000ms, 0310ms total)
T12B0 000:399 JLINK_SetResetType(JLINKARM_RESET_TYPE_NORMAL)  returns JLINKARM_RESET_TYPE_NORMAL (0000ms, 0310ms total)
T12B0 000:399 JLINK_Reset() >0x38 JTAG> >0x80 JTAG> >0x40 JTAG> >0x40 JTAG> >0x50 JTAG> >0x40 JTAG> >0x40 JTAG> >0x40 JTAG> >0x50 JTAG> >0x40 JTAG> >0x40 JTAG> >0x30 JTAG> >0x40 JTAG> >0x40 JTAG> >0x40 JTAG> >0x40 JTAG> >0x40 JTAG> >0x50 JTAG> >0x40 JTAG> >0x80 JTAG> >0x40 JTAG> >0x30 JTAG> >0x40 JTAG> >0x40 JTAG> >0x40 JTAG> >0x40 JTAG> >0x40 JTAG> >0x50 JTAG> >0x40 JTAG> >0x80 JTAG> >0x40 JTAG> >0x30 JTAG> >0x40 JTAG> >0x50 JTAG> >0x40 JTAG> >0x40 JTAG> >0x40 JTAG> >0x30 JTAG> >0x40 JTAG> >0x50 JTAG>
 >0x40 JTAG>Found Cortex-M3 r1p1, Little endian. >0x50 JTAG> >0x50 JTAG> >0x40 JTAG> >0x40 JTAG> >0x30 JTAG> >0x30 JTAG> >0x50 JTAG> >0x40 JTAG> >0x80 JTAG> >0x40 JTAG> >0x30 JTAG> >0x40 JTAG> >0x50 JTAG> >0x40 JTAG> >0x40 JTAG> >0x40 JTAG> >0x30 JTAG> >0x40 JTAG> >0x50 JTAG> >0x40 JTAG>TPIU fitted. >0x40 JTAG> >0x40 JTAG> >0x30 JTAG> >0x40 JTAG> >0x50 JTAG> >0x40 JTAG>ETM fitted. >0x40 JTAG> >0x40 JTAG> >0x30 JTAG> >0x40 JTAG> >0x50 JTAG> >0x40 JTAG> >0x40 JTAG> >0x40 JTAG> >0x30 JTAG> >0x40 JTAG>
 >0x50 JTAG> >0x40 JTAG>FPUnit: 6 code (BP) slots and 2 literal slots >0x40 JTAG> >0x40 JTAG> >0x30 JTAG> >0x40 JTAG> >0x50 JTAG> >0x40 JTAG> >0x40 JTAG> >0x40 JTAG> >0x30 JTAG> >0x40 JTAG> >0x50 JTAG> >0x40 JTAG> >0x40 JTAG> >0x40 JTAG> >0x30 JTAG> >0x30 JTAG> >0x50 JTAG> >0x40 JTAG> -- CPU_WriteMem(4 bytes @ 0xE000EDF0) -- CPU_WriteMem(4 bytes @ 0xE000EDFC) -- CPU_WriteMem(4 bytes @ 0xE000ED0C) -- CPU_ReadMem(4 bytes @ 0xE000EDF0) -- CPU_ReadMem(4 bytes @ 0xE000EDF0)
 -- CPU_WriteMem(4 bytes @ 0xE000EDF0) -- CPU_WriteMem(4 bytes @ 0xE000EDFC) -- CPU is running -- CPU_ReadMem(4 bytes @ 0xE000EDF0) >0xD0 JTAG> >0x40 JTAG> >0x30 JTAG> >0x40 JTAG> >0x50 JTAG> >0x40 JTAG> -- CPU_WriteMem(4 bytes @ 0xE000EDFC) -- CPU_WriteMem(4 bytes @ 0xE0001028) -- CPU_WriteMem(4 bytes @ 0xE0001038) -- CPU_WriteMem(4 bytes @ 0xE0001048) -- CPU_WriteMem(4 bytes @ 0xE0001058) -- CPU_WriteMem(4 bytes @ 0xE0002000) (0110ms, 0420ms total)
T12B0 000:510 JLINK_ReadReg(R15)  returns 0x08000144 (0000ms, 0420ms total)
T12B0 000:510 JLINK_ReadReg(XPSR)  returns 0x01000000 (0000ms, 0420ms total)
T12B0 000:511 JLINK_ReadMem (0x08000130, 0x003C Bytes, ...) -- CPU_ReadMem(128 bytes @ 0x08000100) -- Updating C cache (128 bytes @ 0x08000100) -- Read from C cache (60 bytes @ 0x08000130) -- Data:  DF F8 0C D0 01 F0 46 F9 00 48 00 47 59 10 00 08 ...  returns 0x00 (0003ms, 0423ms total)
T1B24 001:342 JLINK_SetBPEx(Addr = 0x08001058, Type = 0xFFFFFFF2)  returns 0x00000001 (0001ms, 0424ms total)
T1B24 001:343 JLINK_SetBPEx(Addr = 0x08001390, Type = 0xFFFFFFF2)  returns 0x00000002 (0000ms, 0424ms total)
T1B24 001:343 JLINK_SetBPEx(Addr = 0x0800137C, Type = 0xFFFFFFF2)  returns 0x00000003 (0000ms, 0424ms total)
T1B24 001:343 JLINK_Go() -- CPU_WriteMem(4 bytes @ 0xE0002008) -- CPU_WriteMem(4 bytes @ 0xE000200C) -- CPU_WriteMem(4 bytes @ 0xE0002010) -- CPU_WriteMem(4 bytes @ 0xE0002014) -- CPU_WriteMem(4 bytes @ 0xE0002018) -- CPU_WriteMem(4 bytes @ 0xE000201C) (0006ms, 0430ms total)
T1B24 001:449 JLINK_IsHalted()  returns TRUE (0005ms, 0435ms total)
T1B24 001:454 JLINK_Halt()  returns 0x00 (0000ms, 0430ms total)
T1B24 001:454 JLINK_IsHalted()  returns TRUE (0000ms, 0430ms total)
T1B24 001:454 JLINK_IsHalted()  returns TRUE (0000ms, 0430ms total)
T1B24 001:454 JLINK_IsHalted()  returns TRUE (0000ms, 0430ms total)
T1B24 001:455 JLINK_ReadReg(R15)  returns 0x08001058 (0000ms, 0430ms total)
T1B24 001:455 JLINK_ReadReg(XPSR)  returns 0x61000000 (0000ms, 0430ms total)
T1B24 001:455 JLINK_ClrBPEx(BPHandle = 0x00000001)  returns 0x00 (0000ms, 0430ms total)
T1B24 001:455 JLINK_ClrBPEx(BPHandle = 0x00000002)  returns 0x00 (0000ms, 0430ms total)
T1B24 001:455 JLINK_ClrBPEx(BPHandle = 0x00000003)  returns 0x00 (0000ms, 0430ms total)
T1B24 001:455 JLINK_ReadMemU32(0xE000ED30, 0x0001 Items, ...) -- CPU_ReadMem(4 bytes @ 0xE000ED30) -- Data:  03 00 00 00  returns 0x01 (0001ms, 0431ms total)
T1B24 001:456 JLINK_ReadMemU32(0xE0001028, 0x0001 Items, ...) -- CPU_ReadMem(4 bytes @ 0xE0001028) -- Data:  00 00 00 00  returns 0x01 (0001ms, 0432ms total)
T1B24 001:457 JLINK_ReadMemU32(0xE0001038, 0x0001 Items, ...) -- CPU_ReadMem(4 bytes @ 0xE0001038) -- Data:  00 02 00 00  returns 0x01 (0001ms, 0433ms total)
T1B24 001:458 JLINK_ReadMemU32(0xE0001048, 0x0001 Items, ...) -- CPU_ReadMem(4 bytes @ 0xE0001048) -- Data:  00 00 00 00  returns 0x01 (0002ms, 0435ms total)
T1B24 001:460 JLINK_ReadMemU32(0xE0001058, 0x0001 Items, ...) -- CPU_ReadMem(4 bytes @ 0xE0001058) -- Data:  00 00 00 00  returns 0x01 (0001ms, 0436ms total)
T1B24 001:461 JLINK_ReadReg(R0)  returns 0x08001059 (0000ms, 0436ms total)
T1B24 001:461 JLINK_ReadReg(R1)  returns 0x20000660 (0000ms, 0436ms total)
T1B24 001:461 JLINK_ReadReg(R2)  returns 0x00000000 (0000ms, 0436ms total)
T1B24 001:461 JLINK_ReadReg(R3)  returns 0x080013F9 (0000ms, 0436ms total)
T1B24 001:461 JLINK_ReadReg(R4)  returns 0x08001438 (0000ms, 0436ms total)
T1B24 001:461 JLINK_ReadReg(R5)  returns 0x08001438 (0001ms, 0437ms total)
T1B24 001:462 JLINK_ReadReg(R6)  returns 0x00000000 (0000ms, 0437ms total)
T1B24 001:462 JLINK_ReadReg(R7)  returns 0x00000000 (0000ms, 0437ms total)
T1B24 001:462 JLINK_ReadReg(R8)  returns 0x00000000 (0000ms, 0437ms total)
T1B24 001:462 JLINK_ReadReg(R9)  returns 0x20000160 (0000ms, 0437ms total)
T1B24 001:462 JLINK_ReadReg(R10)  returns 0x00000000 (0000ms, 0437ms total)
T1B24 001:462 JLINK_ReadReg(R11)  returns 0x00000000 (0000ms, 0437ms total)
T1B24 001:462 JLINK_ReadReg(R12)  returns 0x00000000 (0000ms, 0437ms total)
T1B24 001:462 JLINK_ReadReg(R13)  returns 0x20000660 (0000ms, 0437ms total)
T1B24 001:462 JLINK_ReadReg(R14)  returns 0x080013E1 (0000ms, 0437ms total)
T1B24 001:462 JLINK_ReadReg(R15)  returns 0x08001058 (0000ms, 0437ms total)
T1B24 001:462 JLINK_ReadReg(XPSR)  returns 0x61000000 (0000ms, 0437ms total)
T1B24 001:463 JLINK_ReadReg(MSP)  returns 0x20000660 (0000ms, 0438ms total)
T1B24 001:463 JLINK_ReadReg(PSP)  returns 0x20000800 (0000ms, 0438ms total)
T1B24 001:463 JLINK_ReadReg(CFBP)  returns 0x00000000 (0000ms, 0438ms total)
T12B0 001:465 JLINK_ReadMemU32(0xE0001004, 0x0001 Items, ...) -- CPU_ReadMem(4 bytes @ 0xE0001004) -- Data:  AA 24 00 00  returns 0x01 (0001ms, 0439ms total)
T12B0 001:476 JLINK_ReadMem (0x08001056, 0x0002 Bytes, ...) -- CPU_ReadMem(64 bytes @ 0x08001040) -- Updating C cache (64 bytes @ 0x08001040) -- Read from C cache (2 bytes @ 0x08001056) -- Data:  00 40  returns 0x00 (0002ms, 0441ms total)
T12B0 001:478 JLINK_ReadMem (0x08001058, 0x003C Bytes, ...) -- CPU_ReadMem(64 bytes @ 0x08001080) -- Updating C cache (64 bytes @ 0x08001080) -- Read from C cache (60 bytes @ 0x08001058) -- Data:  03 49 08 68 80 47 03 49 08 68 80 47 00 BF FE E7 ...  returns 0x00 (0002ms, 0443ms total)
T1B24 002:809 JLINK_SetBPEx(Addr = 0x080013E0, Type = 0xFFFFFFF2)  returns 0x00000004 (0001ms, 0444ms total)
T1B24 002:810 JLINK_SetBPEx(Addr = 0x08001390, Type = 0xFFFFFFF2)  returns 0x00000005 (0000ms, 0444ms total)
T1B24 002:810 JLINK_SetBPEx(Addr = 0x0800137C, Type = 0xFFFFFFF2)  returns 0x00000006 (0000ms, 0444ms total)
T1B24 002:810 JLINK_Go() -- CPU_WriteMem(4 bytes @ 0xE0002008) (0003ms, 0447ms total)
T1B24 002:913 JLINK_IsHalted()  returns TRUE (0005ms, 0452ms total)
T1B24 002:918 JLINK_Halt()  returns 0x00 (0000ms, 0447ms total)
T1B24 002:918 JLINK_IsHalted()  returns TRUE (0000ms, 0447ms total)
T1B24 002:918 JLINK_IsHalted()  returns TRUE (0000ms, 0447ms total)
T1B24 002:919 JLINK_IsHalted()  returns TRUE (0000ms, 0447ms total)
T1B24 002:919 JLINK_ReadReg(R15)  returns 0x0800137C (0000ms, 0447ms total)
T1B24 002:919 JLINK_ReadReg(XPSR)  returns 0x61000027 (0000ms, 0447ms total)
T1B24 002:919 JLINK_ClrBPEx(BPHandle = 0x00000004)  returns 0x00 (0000ms, 0447ms total)
T1B24 002:919 JLINK_ClrBPEx(BPHandle = 0x00000005)  returns 0x00 (0000ms, 0447ms total)
T1B24 002:919 JLINK_ClrBPEx(BPHandle = 0x00000006)  returns 0x00 (0000ms, 0447ms total)
T1B24 002:919 JLINK_ReadMemU32(0xE000ED30, 0x0001 Items, ...) -- CPU_ReadMem(4 bytes @ 0xE000ED30) -- Data:  03 00 00 00  returns 0x01 (0001ms, 0448ms total)
T1B24 002:920 JLINK_ReadMemU32(0xE0001028, 0x0001 Items, ...) -- CPU_ReadMem(4 bytes @ 0xE0001028) -- Data:  00 00 00 00  returns 0x01 (0001ms, 0449ms total)
T1B24 002:921 JLINK_ReadMemU32(0xE0001038, 0x0001 Items, ...) -- CPU_ReadMem(4 bytes @ 0xE0001038) -- Data:  00 02 00 00  returns 0x01 (0002ms, 0451ms total)
T1B24 002:923 JLINK_ReadMemU32(0xE0001048, 0x0001 Items, ...) -- CPU_ReadMem(4 bytes @ 0xE0001048) -- Data:  00 00 00 00  returns 0x01 (0001ms, 0452ms total)
T1B24 002:924 JLINK_ReadMemU32(0xE0001058, 0x0001 Items, ...) -- CPU_ReadMem(4 bytes @ 0xE0001058) -- Data:  00 00 00 00  returns 0x01 (0001ms, 0453ms total)
T1B24 002:925 JLINK_ReadReg(R0)  returns 0x20000644 (0000ms, 0453ms total)
T1B24 002:925 JLINK_ReadReg(R1)  returns 0x00000000 (0000ms, 0453ms total)
T1B24 002:925 JLINK_ReadReg(R2)  returns 0x00000000 (0000ms, 0453ms total)
T1B24 002:926 JLINK_ReadReg(R3)  returns 0xFFFFFFFD (0000ms, 0454ms total)
T1B24 002:926 JLINK_ReadReg(R4)  returns 0x00800000 (0000ms, 0454ms total)
T1B24 002:926 JLINK_ReadReg(R5)  returns 0xE000E000 (0000ms, 0454ms total)
T1B24 002:926 JLINK_ReadReg(R6)  returns 0xE000E000 (0000ms, 0454ms total)
T1B24 002:926 JLINK_ReadReg(R7)  returns 0x00000000 (0000ms, 0454ms total)
T1B24 002:926 JLINK_ReadReg(R8)  returns 0x00000000 (0000ms, 0454ms total)
T1B24 002:926 JLINK_ReadReg(R9)  returns 0x20000160 (0000ms, 0454ms total)
T1B24 002:926 JLINK_ReadReg(R10)  returns 0x00000000 (0000ms, 0454ms total)
T1B24 002:926 JLINK_ReadReg(R11)  returns 0x00000000 (0000ms, 0454ms total)
T1B24 002:926 JLINK_ReadReg(R12)  returns 0x000000C0 (0000ms, 0454ms total)
T1B24 002:926 JLINK_ReadReg(R13)  returns 0x20000608 (0000ms, 0454ms total)
T1B24 002:926 JLINK_ReadReg(R14)  returns 0xFFFFFFF9 (0000ms, 0454ms total)
T1B24 002:926 JLINK_ReadReg(R15)  returns 0x0800137C (0001ms, 0455ms total)
T1B24 002:927 JLINK_ReadReg(XPSR)  returns 0x61000027 (0000ms, 0455ms total)
T1B24 002:927 JLINK_ReadReg(MSP)  returns 0x20000608 (0000ms, 0455ms total)
T1B24 002:927 JLINK_ReadReg(PSP)  returns 0x20000800 (0000ms, 0455ms total)
T1B24 002:927 JLINK_ReadReg(CFBP)  returns 0x00000000 (0000ms, 0455ms total)
T12B0 002:927 JLINK_ReadMem (0x20000620, 0x0004 Bytes, ...) -- CPU_ReadMem(64 bytes @ 0x20000600) -- Updating C cache (64 bytes @ 0x20000600) -- Read from C cache (4 bytes @ 0x20000620) -- Data:  CA 03 00 08  returns 0x00 (0002ms, 0457ms total)
T12B0 002:929 JLINK_ReadMem (0x20000624, 0x0004 Bytes, ...) -- Read from C cache (4 bytes @ 0x20000624) -- Data:  00 00 00 61  returns 0x00 (0000ms, 0457ms total)
T12B0 002:929 JLINK_ReadMem (0x2000061C, 0x0004 Bytes, ...) -- Read from C cache (4 bytes @ 0x2000061C) -- Data:  E1 12 00 08  returns 0x00 (0000ms, 0457ms total)
T12B0 002:929 JLINK_ReadMem (0xE000ED28, 0x0004 Bytes, ...) -- CPU_ReadMem(4 bytes @ 0xE000ED28) -- Data:  00 00 00 00  returns 0x00 (0002ms, 0459ms total)
T12B0 002:931 JLINK_ReadMem (0x20000634, 0x0004 Bytes, ...) -- Read from C cache (4 bytes @ 0x20000634) -- Data:  E1 12 00 08  returns 0x00 (0001ms, 0460ms total)
T12B0 002:932 JLINK_ReadMem (0x20000628, 0x0004 Bytes, ...) -- Read from C cache (4 bytes @ 0x20000628) -- Data:  38 14 00 08  returns 0x00 (0000ms, 0460ms total)
T12B0 002:932 JLINK_ReadMem (0x2000062C, 0x0004 Bytes, ...) -- Read from C cache (4 bytes @ 0x2000062C) -- Data:  38 14 00 08  returns 0x00 (0000ms, 0460ms total)
T12B0 002:932 JLINK_ReadMem (0x20000630, 0x0004 Bytes, ...) -- Read from C cache (4 bytes @ 0x20000630) -- Data:  00 00 00 00  returns 0x00 (0000ms, 0460ms total)
T12B0 002:932 JLINK_ReadMem (0x2000065C, 0x0004 Bytes, ...) -- CPU_ReadMem(64 bytes @ 0x20000640) -- Updating C cache (64 bytes @ 0x20000640) -- Read from C cache (4 bytes @ 0x2000065C) -- Data:  65 10 00 08  returns 0x00 (0002ms, 0462ms total)
T12B0 002:935 JLINK_ReadMemU32(0xE0001004, 0x0001 Items, ...) -- CPU_ReadMem(4 bytes @ 0xE0001004) -- Data:  B6 2F 00 00  returns 0x01 (0001ms, 0463ms total)
T12B0 002:945 JLINK_ReadMem (0x0800137A, 0x0002 Bytes, ...) -- CPU_ReadMem(64 bytes @ 0x08001340) -- Updating C cache (64 bytes @ 0x08001340) -- Read from C cache (2 bytes @ 0x0800137A) -- Data:  70 47  returns 0x00 (0002ms, 0465ms total)
T12B0 002:947 JLINK_ReadMem (0x0800137C, 0x003C Bytes, ...) -- CPU_ReadMem(64 bytes @ 0x08001380) -- Updating C cache (64 bytes @ 0x08001380) -- Read from C cache (60 bytes @ 0x0800137C) -- Data:  0A 48 08 30 00 68 10 F0 80 0F 03 D0 00 20 0C 49 ...  returns 0x00 (0002ms, 0467ms total)
T1B24 003:729 JLINK_Step() -- Read from C cache (2 bytes @ 0x0800137C) -- Read from C cache (4 bytes @ 0x080013A8) -- Simulated  returns 0x00 (0001ms, 0468ms total)
T1B24 003:730 JLINK_ReadReg(R15)  returns 0x0800137E (0001ms, 0469ms total)
T1B24 003:731 JLINK_ReadReg(XPSR)  returns 0x61000027 (0000ms, 0469ms total)
T1B24 003:731 JLINK_SetBPEx(Addr = 0x080003CA, Type = 0xFFFFFFF2)  returns 0x00000007 (0000ms, 0469ms total)
T1B24 003:731 JLINK_SetBPEx(Addr = 0x08001390, Type = 0xFFFFFFF2)  returns 0x00000008 (0000ms, 0469ms total)
T1B24 003:731 JLINK_SetBPEx(Addr = 0x0800137C, Type = 0xFFFFFFF2)  returns 0x00000009 (0000ms, 0469ms total)
T1B24 003:731 JLINK_Go() -- CPU_WriteMem(4 bytes @ 0xE0002008) (0003ms, 0472ms total)
T1B24 003:834 JLINK_IsHalted()  returns TRUE (0006ms, 0478ms total)
T1B24 003:840 JLINK_Halt()  returns 0x00 (0000ms, 0472ms total)
T1B24 003:840 JLINK_IsHalted()  returns TRUE (0000ms, 0472ms total)
T1B24 003:840 JLINK_IsHalted()  returns TRUE (0000ms, 0472ms total)
T1B24 003:840 JLINK_IsHalted()  returns TRUE (0000ms, 0472ms total)
T1B24 003:840 JLINK_ReadReg(R15)  returns 0x08001390 (0000ms, 0472ms total)
T1B24 003:840 JLINK_ReadReg(XPSR)  returns 0x41000027 (0000ms, 0472ms total)
T1B24 003:840 JLINK_ClrBPEx(BPHandle = 0x00000007)  returns 0x00 (0000ms, 0472ms total)
T1B24 003:840 JLINK_ClrBPEx(BPHandle = 0x00000008)  returns 0x00 (0000ms, 0472ms total)
T1B24 003:840 JLINK_ClrBPEx(BPHandle = 0x00000009)  returns 0x00 (0000ms, 0472ms total)
T1B24 003:840 JLINK_ReadMemU32(0xE000ED30, 0x0001 Items, ...) -- CPU_ReadMem(4 bytes @ 0xE000ED30) -- Data:  03 00 00 00  returns 0x01 (0002ms, 0474ms total)
T1B24 003:842 JLINK_ReadMemU32(0xE0001028, 0x0001 Items, ...) -- CPU_ReadMem(4 bytes @ 0xE0001028) -- Data:  00 00 00 00  returns 0x01 (0001ms, 0475ms total)
T1B24 003:843 JLINK_ReadMemU32(0xE0001038, 0x0001 Items, ...) -- CPU_ReadMem(4 bytes @ 0xE0001038) -- Data:  00 02 00 00  returns 0x01 (0001ms, 0476ms total)
T1B24 003:844 JLINK_ReadMemU32(0xE0001048, 0x0001 Items, ...) -- CPU_ReadMem(4 bytes @ 0xE0001048) -- Data:  00 00 00 00  returns 0x01 (0001ms, 0477ms total)
T1B24 003:845 JLINK_ReadMemU32(0xE0001058, 0x0001 Items, ...) -- CPU_ReadMem(4 bytes @ 0xE0001058) -- Data:  00 00 00 00  returns 0x01 (0001ms, 0478ms total)
T1B24 003:846 JLINK_ReadReg(R0)  returns 0x00007C11 (0001ms, 0479ms total)
T1B24 003:847 JLINK_ReadReg(R1)  returns 0x00000000 (0000ms, 0479ms total)
T1B24 003:847 JLINK_ReadReg(R2)  returns 0x00000000 (0000ms, 0479ms total)
T1B24 003:847 JLINK_ReadReg(R3)  returns 0xFFFFFFFD (0000ms, 0479ms total)
T1B24 003:847 JLINK_ReadReg(R4)  returns 0x00800000 (0000ms, 0479ms total)
T1B24 003:847 JLINK_ReadReg(R5)  returns 0xE000E000 (0000ms, 0479ms total)
T1B24 003:847 JLINK_ReadReg(R6)  returns 0xE000E000 (0000ms, 0479ms total)
T1B24 003:847 JLINK_ReadReg(R7)  returns 0x00000000 (0000ms, 0479ms total)
T1B24 003:847 JLINK_ReadReg(R8)  returns 0x00000000 (0000ms, 0479ms total)
T1B24 003:847 JLINK_ReadReg(R9)  returns 0x20000160 (0000ms, 0479ms total)
T1B24 003:847 JLINK_ReadReg(R10)  returns 0x00000000 (0000ms, 0479ms total)
T1B24 003:847 JLINK_ReadReg(R11)  returns 0x00000000 (0000ms, 0479ms total)
T1B24 003:848 JLINK_ReadReg(R12)  returns 0x000000C0 (0000ms, 0479ms total)
T1B24 003:848 JLINK_ReadReg(R13)  returns 0x20000608 (0000ms, 0479ms total)
T1B24 003:848 JLINK_ReadReg(R14)  returns 0xFFFFFFF9 (0000ms, 0479ms total)
T1B24 003:848 JLINK_ReadReg(R15)  returns 0x08001390 (0000ms, 0479ms total)
T1B24 003:848 JLINK_ReadReg(XPSR)  returns 0x41000027 (0000ms, 0479ms total)
T1B24 003:848 JLINK_ReadReg(MSP)  returns 0x20000608 (0000ms, 0479ms total)
T1B24 003:848 JLINK_ReadReg(PSP)  returns 0x20000800 (0000ms, 0479ms total)
T1B24 003:848 JLINK_ReadReg(CFBP)  returns 0x00000000 (0000ms, 0479ms total)
T12B0 003:849 JLINK_ReadMem (0x20000620, 0x0004 Bytes, ...) -- CPU_ReadMem(64 bytes @ 0x20000600) -- Updating C cache (64 bytes @ 0x20000600) -- Read from C cache (4 bytes @ 0x20000620) -- Data:  CA 03 00 08  returns 0x00 (0001ms, 0480ms total)
T12B0 003:850 JLINK_ReadMem (0x20000624, 0x0004 Bytes, ...) -- Read from C cache (4 bytes @ 0x20000624) -- Data:  00 00 00 61  returns 0x00 (0001ms, 0481ms total)
T12B0 003:851 JLINK_ReadMem (0x2000061C, 0x0004 Bytes, ...) -- Read from C cache (4 bytes @ 0x2000061C) -- Data:  E1 12 00 08  returns 0x00 (0000ms, 0481ms total)
T12B0 003:851 JLINK_ReadMem (0xE000ED28, 0x0004 Bytes, ...) -- CPU_ReadMem(4 bytes @ 0xE000ED28) -- Data:  00 00 00 00  returns 0x00 (0001ms, 0482ms total)
T12B0 003:852 JLINK_ReadMem (0x20000634, 0x0004 Bytes, ...) -- Read from C cache (4 bytes @ 0x20000634) -- Data:  E1 12 00 08  returns 0x00 (0000ms, 0482ms total)
T12B0 003:852 JLINK_ReadMem (0x20000628, 0x0004 Bytes, ...) -- Read from C cache (4 bytes @ 0x20000628) -- Data:  38 14 00 08  returns 0x00 (0000ms, 0482ms total)
T12B0 003:852 JLINK_ReadMem (0x2000062C, 0x0004 Bytes, ...) -- Read from C cache (4 bytes @ 0x2000062C) -- Data:  38 14 00 08  returns 0x00 (0000ms, 0482ms total)
T12B0 003:852 JLINK_ReadMem (0x20000630, 0x0004 Bytes, ...) -- Read from C cache (4 bytes @ 0x20000630) -- Data:  00 00 00 00  returns 0x00 (0001ms, 0483ms total)
T12B0 003:853 JLINK_ReadMem (0x2000065C, 0x0004 Bytes, ...) -- CPU_ReadMem(64 bytes @ 0x20000640) -- Updating C cache (64 bytes @ 0x20000640) -- Read from C cache (4 bytes @ 0x2000065C) -- Data:  65 10 00 08  returns 0x00 (0001ms, 0484ms total)
T12B0 003:855 JLINK_ReadMemU32(0xE0001004, 0x0001 Items, ...) -- CPU_ReadMem(4 bytes @ 0xE0001004) -- Data:  C1 2F 00 00  returns 0x01 (0001ms, 0485ms total)
T12B0 003:865 JLINK_ReadMem (0x08001388, 0x003C Bytes, ...) -- CPU_ReadMem(128 bytes @ 0x08001380) -- Updating C cache (128 bytes @ 0x08001380) -- Read from C cache (60 bytes @ 0x08001388) -- Data:  00 20 0C 49 08 70 02 E0 01 20 0A 49 08 70 80 20 ...  returns 0x00 (0002ms, 0487ms total)
T1B24 004:513 JLINK_Step() -- Read from C cache (2 bytes @ 0x08001390) -- Simulated  returns 0x00 (0001ms, 0488ms total)
T1B24 004:514 JLINK_ReadReg(R15)  returns 0x08001392 (0000ms, 0488ms total)
T1B24 004:514 JLINK_ReadReg(XPSR)  returns 0x01000027 (0000ms, 0488ms total)
T1B24 004:514 JLINK_SetBPEx(Addr = 0x080003CA, Type = 0xFFFFFFF2)  returns 0x0000000A (0001ms, 0489ms total)
T1B24 004:515 JLINK_SetBPEx(Addr = 0x08001390, Type = 0xFFFFFFF2)  returns 0x0000000B (0000ms, 0489ms total)
T1B24 004:515 JLINK_SetBPEx(Addr = 0x0800137C, Type = 0xFFFFFFF2)  returns 0x0000000C (0000ms, 0489ms total)
T1B24 004:515 JLINK_Go() (0002ms, 0491ms total)
T1B24 004:617 JLINK_IsHalted()  returns TRUE (0005ms, 0496ms total)
T1B24 004:622 JLINK_Halt()  returns 0x00 (0000ms, 0491ms total)
T1B24 004:622 JLINK_IsHalted()  returns TRUE (0000ms, 0491ms total)
T1B24 004:622 JLINK_IsHalted()  returns TRUE (0001ms, 0492ms total)
T1B24 004:623 JLINK_IsHalted()  returns TRUE (0000ms, 0491ms total)
T1B24 004:623 JLINK_ReadReg(R15)  returns 0x0800137C (0000ms, 0491ms total)
T1B24 004:623 JLINK_ReadReg(XPSR)  returns 0x01000027 (0000ms, 0491ms total)
T1B24 004:623 JLINK_ClrBPEx(BPHandle = 0x0000000A)  returns 0x00 (0000ms, 0491ms total)
T1B24 004:623 JLINK_ClrBPEx(BPHandle = 0x0000000B)  returns 0x00 (0000ms, 0491ms total)
T1B24 004:623 JLINK_ClrBPEx(BPHandle = 0x0000000C)  returns 0x00 (0000ms, 0491ms total)
T1B24 004:623 JLINK_ReadMemU32(0xE000ED30, 0x0001 Items, ...) -- CPU_ReadMem(4 bytes @ 0xE000ED30) -- Data:  03 00 00 00  returns 0x01 (0001ms, 0492ms total)
T1B24 004:624 JLINK_ReadMemU32(0xE0001028, 0x0001 Items, ...) -- CPU_ReadMem(4 bytes @ 0xE0001028) -- Data:  00 00 00 00  returns 0x01 (0001ms, 0493ms total)
T1B24 004:625 JLINK_ReadMemU32(0xE0001038, 0x0001 Items, ...) -- CPU_ReadMem(4 bytes @ 0xE0001038) -- Data:  00 02 00 00  returns 0x01 (0002ms, 0495ms total)
T1B24 004:627 JLINK_ReadMemU32(0xE0001048, 0x0001 Items, ...) -- CPU_ReadMem(4 bytes @ 0xE0001048) -- Data:  00 00 00 00  returns 0x01 (0001ms, 0496ms total)
T1B24 004:628 JLINK_ReadMemU32(0xE0001058, 0x0001 Items, ...) -- CPU_ReadMem(4 bytes @ 0xE0001058) -- Data:  00 00 00 00  returns 0x01 (0001ms, 0497ms total)
T1B24 004:629 JLINK_ReadReg(R0)  returns 0x00000080 (0000ms, 0497ms total)
T1B24 004:629 JLINK_ReadReg(R1)  returns 0x40010414 (0000ms, 0497ms total)
T1B24 004:629 JLINK_ReadReg(R2)  returns 0x00000000 (0000ms, 0497ms total)
T1B24 004:629 JLINK_ReadReg(R3)  returns 0xFFFFFFFD (0000ms, 0497ms total)
T1B24 004:630 JLINK_ReadReg(R4)  returns 0x00800000 (0000ms, 0498ms total)
T1B24 004:630 JLINK_ReadReg(R5)  returns 0xE000E000 (0000ms, 0498ms total)
T1B24 004:630 JLINK_ReadReg(R6)  returns 0xE000E000 (0000ms, 0498ms total)
T1B24 004:630 JLINK_ReadReg(R7)  returns 0x00000000 (0000ms, 0498ms total)
T1B24 004:630 JLINK_ReadReg(R8)  returns 0x00000000 (0000ms, 0498ms total)
T1B24 004:630 JLINK_ReadReg(R9)  returns 0x20000160 (0000ms, 0498ms total)
T1B24 004:630 JLINK_ReadReg(R10)  returns 0x00000000 (0000ms, 0498ms total)
T1B24 004:630 JLINK_ReadReg(R11)  returns 0x00000000 (0000ms, 0498ms total)
T1B24 004:630 JLINK_ReadReg(R12)  returns 0x000000C0 (0000ms, 0498ms total)
T1B24 004:630 JLINK_ReadReg(R13)  returns 0x20000608 (0000ms, 0498ms total)
T1B24 004:630 JLINK_ReadReg(R14)  returns 0xFFFFFFF9 (0000ms, 0498ms total)
T1B24 004:630 JLINK_ReadReg(R15)  returns 0x0800137C (0000ms, 0498ms total)
T1B24 004:630 JLINK_ReadReg(XPSR)  returns 0x01000027 (0001ms, 0499ms total)
T1B24 004:631 JLINK_ReadReg(MSP)  returns 0x20000608 (0000ms, 0499ms total)
T1B24 004:631 JLINK_ReadReg(PSP)  returns 0x20000800 (0000ms, 0499ms total)
T1B24 004:631 JLINK_ReadReg(CFBP)  returns 0x00000000 (0000ms, 0499ms total)
T12B0 004:631 JLINK_ReadMem (0x20000620, 0x0004 Bytes, ...) -- CPU_ReadMem(64 bytes @ 0x20000600) -- Updating C cache (64 bytes @ 0x20000600) -- Read from C cache (4 bytes @ 0x20000620) -- Data:  CA 03 00 08  returns 0x00 (0002ms, 0501ms total)
T12B0 004:633 JLINK_ReadMem (0x20000624, 0x0004 Bytes, ...) -- Read from C cache (4 bytes @ 0x20000624) -- Data:  00 00 00 61  returns 0x00 (0000ms, 0501ms total)
T12B0 004:633 JLINK_ReadMem (0x2000061C, 0x0004 Bytes, ...) -- Read from C cache (4 bytes @ 0x2000061C) -- Data:  E1 12 00 08  returns 0x00 (0000ms, 0501ms total)
T12B0 004:633 JLINK_ReadMem (0xE000ED28, 0x0004 Bytes, ...) -- CPU_ReadMem(4 bytes @ 0xE000ED28) -- Data:  00 00 00 00  returns 0x00 (0002ms, 0503ms total)
T12B0 004:635 JLINK_ReadMem (0x20000634, 0x0004 Bytes, ...) -- Read from C cache (4 bytes @ 0x20000634) -- Data:  E1 12 00 08  returns 0x00 (0000ms, 0503ms total)
T12B0 004:635 JLINK_ReadMem (0x20000628, 0x0004 Bytes, ...) -- Read from C cache (4 bytes @ 0x20000628) -- Data:  38 14 00 08  returns 0x00 (0000ms, 0503ms total)
T12B0 004:635 JLINK_ReadMem (0x2000062C, 0x0004 Bytes, ...) -- Read from C cache (4 bytes @ 0x2000062C) -- Data:  38 14 00 08  returns 0x00 (0000ms, 0503ms total)
T12B0 004:635 JLINK_ReadMem (0x20000630, 0x0004 Bytes, ...) -- Read from C cache (4 bytes @ 0x20000630) -- Data:  00 00 00 00  returns 0x00 (0000ms, 0503ms total)
T12B0 004:635 JLINK_ReadMem (0x2000065C, 0x0004 Bytes, ...) -- CPU_ReadMem(64 bytes @ 0x20000640) -- Updating C cache (64 bytes @ 0x20000640) -- Read from C cache (4 bytes @ 0x2000065C) -- Data:  65 10 00 08  returns 0x00 (0002ms, 0505ms total)
T12B0 004:637 JLINK_ReadMemU32(0xE0001004, 0x0001 Items, ...) -- CPU_ReadMem(4 bytes @ 0xE0001004) -- Data:  DE 2F 00 00  returns 0x01 (0001ms, 0506ms total)
T12B0 004:648 JLINK_ReadMem (0x0800137A, 0x0002 Bytes, ...) -- CPU_ReadMem(64 bytes @ 0x08001340) -- Updating C cache (64 bytes @ 0x08001340) -- Read from C cache (2 bytes @ 0x0800137A) -- Data:  70 47  returns 0x00 (0002ms, 0508ms total)
T12B0 004:650 JLINK_ReadMem (0x0800137C, 0x003C Bytes, ...) -- CPU_ReadMem(64 bytes @ 0x08001380) -- Updating C cache (64 bytes @ 0x08001380) -- Read from C cache (60 bytes @ 0x0800137C) -- Data:  0A 48 08 30 00 68 10 F0 80 0F 03 D0 00 20 0C 49 ...  returns 0x00 (0002ms, 0510ms total)
T1B24 008:025 JLINK_SetBPEx(Addr = 0x080003CA, Type = 0xFFFFFFF2)  returns 0x0000000D (0001ms, 0511ms total)
T1B24 008:026 JLINK_SetBPEx(Addr = 0x08001390, Type = 0xFFFFFFF2)  returns 0x0000000E (0000ms, 0511ms total)
T1B24 008:026 JLINK_SetBPEx(Addr = 0x08001388, Type = 0xFFFFFFF2)  returns 0x0000000F (0000ms, 0511ms total)
T1B24 008:026 JLINK_Go() -- CPU_WriteMem(4 bytes @ 0xE0002010) (0003ms, 0514ms total)
T1B24 008:129 JLINK_IsHalted()  returns TRUE (0005ms, 0519ms total)
T1B24 008:134 JLINK_Halt()  returns 0x00 (0000ms, 0514ms total)
T1B24 008:134 JLINK_IsHalted()  returns TRUE (0000ms, 0514ms total)
T1B24 008:134 JLINK_IsHalted()  returns TRUE (0000ms, 0514ms total)
T1B24 008:134 JLINK_IsHalted()  returns TRUE (0000ms, 0514ms total)
T1B24 008:134 JLINK_ReadReg(R15)  returns 0x08001388 (0000ms, 0514ms total)
T1B24 008:134 JLINK_ReadReg(XPSR)  returns 0x01000027 (0001ms, 0515ms total)
T1B24 008:135 JLINK_ClrBPEx(BPHandle = 0x0000000D)  returns 0x00 (0000ms, 0515ms total)
T1B24 008:135 JLINK_ClrBPEx(BPHandle = 0x0000000E)  returns 0x00 (0000ms, 0515ms total)
T1B24 008:135 JLINK_ClrBPEx(BPHandle = 0x0000000F)  returns 0x00 (0000ms, 0515ms total)
T1B24 008:135 JLINK_ReadMemU32(0xE000ED30, 0x0001 Items, ...) -- CPU_ReadMem(4 bytes @ 0xE000ED30) -- Data:  03 00 00 00  returns 0x01 (0001ms, 0516ms total)
T1B24 008:136 JLINK_ReadMemU32(0xE0001028, 0x0001 Items, ...) -- CPU_ReadMem(4 bytes @ 0xE0001028) -- Data:  00 00 00 00  returns 0x01 (0001ms, 0517ms total)
T1B24 008:137 JLINK_ReadMemU32(0xE0001038, 0x0001 Items, ...) -- CPU_ReadMem(4 bytes @ 0xE0001038) -- Data:  00 02 00 00  returns 0x01 (0001ms, 0518ms total)
T1B24 008:138 JLINK_ReadMemU32(0xE0001048, 0x0001 Items, ...) -- CPU_ReadMem(4 bytes @ 0xE0001048) -- Data:  00 00 00 00  returns 0x01 (0002ms, 0520ms total)
T1B24 008:140 JLINK_ReadMemU32(0xE0001058, 0x0001 Items, ...) -- CPU_ReadMem(4 bytes @ 0xE0001058) -- Data:  00 00 00 00  returns 0x01 (0001ms, 0521ms total)
T1B24 008:141 JLINK_ReadReg(R0)  returns 0x00007C91 (0000ms, 0521ms total)
T1B24 008:141 JLINK_ReadReg(R1)  returns 0x40010414 (0000ms, 0521ms total)
T1B24 008:141 JLINK_ReadReg(R2)  returns 0x00000000 (0000ms, 0521ms total)
T1B24 008:141 JLINK_ReadReg(R3)  returns 0xFFFFFFFD (0000ms, 0521ms total)
T1B24 008:141 JLINK_ReadReg(R4)  returns 0x00800000 (0000ms, 0521ms total)
T1B24 008:141 JLINK_ReadReg(R5)  returns 0xE000E000 (0000ms, 0521ms total)
T1B24 008:141 JLINK_ReadReg(R6)  returns 0xE000E000 (0000ms, 0521ms total)
T1B24 008:141 JLINK_ReadReg(R7)  returns 0x00000000 (0001ms, 0522ms total)
T1B24 008:142 JLINK_ReadReg(R8)  returns 0x00000000 (0000ms, 0522ms total)
T1B24 008:142 JLINK_ReadReg(R9)  returns 0x20000160 (0000ms, 0522ms total)
T1B24 008:142 JLINK_ReadReg(R10)  returns 0x00000000 (0000ms, 0522ms total)
T1B24 008:142 JLINK_ReadReg(R11)  returns 0x00000000 (0000ms, 0522ms total)
T1B24 008:142 JLINK_ReadReg(R12)  returns 0x000000C0 (0000ms, 0522ms total)
T1B24 008:142 JLINK_ReadReg(R13)  returns 0x20000608 (0000ms, 0522ms total)
T1B24 008:142 JLINK_ReadReg(R14)  returns 0xFFFFFFF9 (0000ms, 0522ms total)
T1B24 008:142 JLINK_ReadReg(R15)  returns 0x08001388 (0000ms, 0522ms total)
T1B24 008:142 JLINK_ReadReg(XPSR)  returns 0x01000027 (0000ms, 0522ms total)
T1B24 008:142 JLINK_ReadReg(MSP)  returns 0x20000608 (0000ms, 0522ms total)
T1B24 008:142 JLINK_ReadReg(PSP)  returns 0x20000800 (0000ms, 0522ms total)
T1B24 008:142 JLINK_ReadReg(CFBP)  returns 0x00000000 (0001ms, 0523ms total)
T12B0 008:143 JLINK_ReadMem (0x20000620, 0x0004 Bytes, ...) -- CPU_ReadMem(64 bytes @ 0x20000600) -- Updating C cache (64 bytes @ 0x20000600) -- Read from C cache (4 bytes @ 0x20000620) -- Data:  CA 03 00 08  returns 0x00 (0002ms, 0525ms total)
T12B0 008:145 JLINK_ReadMem (0x20000624, 0x0004 Bytes, ...) -- Read from C cache (4 bytes @ 0x20000624) -- Data:  00 00 00 61  returns 0x00 (0000ms, 0525ms total)
T12B0 008:145 JLINK_ReadMem (0x2000061C, 0x0004 Bytes, ...) -- Read from C cache (4 bytes @ 0x2000061C) -- Data:  E1 12 00 08  returns 0x00 (0000ms, 0525ms total)
T12B0 008:145 JLINK_ReadMem (0xE000ED28, 0x0004 Bytes, ...) -- CPU_ReadMem(4 bytes @ 0xE000ED28) -- Data:  00 00 00 00  returns 0x00 (0001ms, 0526ms total)
T12B0 008:146 JLINK_ReadMem (0x20000634, 0x0004 Bytes, ...) -- Read from C cache (4 bytes @ 0x20000634) -- Data:  E1 12 00 08  returns 0x00 (0000ms, 0526ms total)
T12B0 008:146 JLINK_ReadMem (0x20000628, 0x0004 Bytes, ...) -- Read from C cache (4 bytes @ 0x20000628) -- Data:  38 14 00 08  returns 0x00 (0000ms, 0526ms total)
T12B0 008:147 JLINK_ReadMem (0x2000062C, 0x0004 Bytes, ...) -- Read from C cache (4 bytes @ 0x2000062C) -- Data:  38 14 00 08  returns 0x00 (0000ms, 0527ms total)
T12B0 008:147 JLINK_ReadMem (0x20000630, 0x0004 Bytes, ...) -- Read from C cache (4 bytes @ 0x20000630) -- Data:  00 00 00 00  returns 0x00 (0000ms, 0527ms total)
T12B0 008:147 JLINK_ReadMem (0x2000065C, 0x0004 Bytes, ...) -- CPU_ReadMem(64 bytes @ 0x20000640) -- Updating C cache (64 bytes @ 0x20000640) -- Read from C cache (4 bytes @ 0x2000065C) -- Data:  65 10 00 08  returns 0x00 (0002ms, 0529ms total)
T12B0 008:149 JLINK_ReadMemU32(0xE0001004, 0x0001 Items, ...) -- CPU_ReadMem(4 bytes @ 0xE0001004) -- Data:  EF 2F 00 00  returns 0x01 (0001ms, 0530ms total)
T12B0 008:159 JLINK_ReadMem (0x08001386, 0x0002 Bytes, ...) -- CPU_ReadMem(64 bytes @ 0x08001380) -- Updating C cache (64 bytes @ 0x08001380) -- Read from C cache (2 bytes @ 0x08001386) -- Data:  03 D0  returns 0x00 (0001ms, 0531ms total)
T12B0 008:160 JLINK_ReadMem (0x08001388, 0x003C Bytes, ...) -- CPU_ReadMem(64 bytes @ 0x080013C0) -- Updating C cache (64 bytes @ 0x080013C0) -- Read from C cache (60 bytes @ 0x08001388) -- Data:  00 20 0C 49 08 70 02 E0 01 20 0A 49 08 70 80 20 ...  returns 0x00 (0002ms, 0533ms total)
T1B24 008:841 JLINK_Step() -- Read from C cache (2 bytes @ 0x08001388) -- Simulated  returns 0x00 (0001ms, 0534ms total)
T1B24 008:842 JLINK_ReadReg(R15)  returns 0x0800138A (0000ms, 0534ms total)
T1B24 008:842 JLINK_ReadReg(XPSR)  returns 0x41000027 (0000ms, 0534ms total)
T1B24 008:842 JLINK_SetBPEx(Addr = 0x080003CA, Type = 0xFFFFFFF2)  returns 0x00000010 (0000ms, 0534ms total)
T1B24 008:842 JLINK_SetBPEx(Addr = 0x08001390, Type = 0xFFFFFFF2)  returns 0x00000011 (0000ms, 0534ms total)
T1B24 008:842 JLINK_SetBPEx(Addr = 0x08001388, Type = 0xFFFFFFF2)  returns 0x00000012 (0000ms, 0534ms total)
T1B24 008:842 JLINK_Go() (0003ms, 0537ms total)
T1B24 008:945 JLINK_IsHalted()  returns TRUE (0005ms, 0542ms total)
T1B24 008:950 JLINK_Halt()  returns 0x00 (0000ms, 0537ms total)
T1B24 008:950 JLINK_IsHalted()  returns TRUE (0000ms, 0537ms total)
T1B24 008:950 JLINK_IsHalted()  returns TRUE (0000ms, 0537ms total)
T1B24 008:950 JLINK_IsHalted()  returns TRUE (0000ms, 0537ms total)
T1B24 008:950 JLINK_ReadReg(R15)  returns 0x08001388 (0001ms, 0538ms total)
T1B24 008:951 JLINK_ReadReg(XPSR)  returns 0x01000027 (0000ms, 0538ms total)
T1B24 008:951 JLINK_ClrBPEx(BPHandle = 0x00000010)  returns 0x00 (0000ms, 0538ms total)
T1B24 008:951 JLINK_ClrBPEx(BPHandle = 0x00000011)  returns 0x00 (0000ms, 0538ms total)
T1B24 008:951 JLINK_ClrBPEx(BPHandle = 0x00000012)  returns 0x00 (0000ms, 0538ms total)
T1B24 008:951 JLINK_ReadMemU32(0xE000ED30, 0x0001 Items, ...) -- CPU_ReadMem(4 bytes @ 0xE000ED30) -- Data:  03 00 00 00  returns 0x01 (0001ms, 0539ms total)
T1B24 008:952 JLINK_ReadMemU32(0xE0001028, 0x0001 Items, ...) -- CPU_ReadMem(4 bytes @ 0xE0001028) -- Data:  00 00 00 00  returns 0x01 (0001ms, 0540ms total)
T1B24 008:953 JLINK_ReadMemU32(0xE0001038, 0x0001 Items, ...) -- CPU_ReadMem(4 bytes @ 0xE0001038) -- Data:  00 02 00 00  returns 0x01 (0002ms, 0542ms total)
T1B24 008:955 JLINK_ReadMemU32(0xE0001048, 0x0001 Items, ...) -- CPU_ReadMem(4 bytes @ 0xE0001048) -- Data:  00 00 00 00  returns 0x01 (0001ms, 0543ms total)
T1B24 008:956 JLINK_ReadMemU32(0xE0001058, 0x0001 Items, ...) -- CPU_ReadMem(4 bytes @ 0xE0001058) -- Data:  00 00 00 00  returns 0x01 (0001ms, 0544ms total)
T1B24 008:957 JLINK_ReadReg(R0)  returns 0x00007C91 (0000ms, 0544ms total)
T1B24 008:957 JLINK_ReadReg(R1)  returns 0x40010414 (0000ms, 0544ms total)
T1B24 008:957 JLINK_ReadReg(R2)  returns 0x00000000 (0000ms, 0544ms total)
T1B24 008:957 JLINK_ReadReg(R3)  returns 0xFFFFFFFD (0001ms, 0545ms total)
T1B24 008:958 JLINK_ReadReg(R4)  returns 0x00800000 (0000ms, 0545ms total)
T1B24 008:958 JLINK_ReadReg(R5)  returns 0xE000E000 (0000ms, 0545ms total)
T1B24 008:958 JLINK_ReadReg(R6)  returns 0xE000E000 (0000ms, 0545ms total)
T1B24 008:958 JLINK_ReadReg(R7)  returns 0x00000000 (0000ms, 0545ms total)
T1B24 008:958 JLINK_ReadReg(R8)  returns 0x00000000 (0000ms, 0545ms total)
T1B24 008:958 JLINK_ReadReg(R9)  returns 0x20000160 (0000ms, 0545ms total)
T1B24 008:958 JLINK_ReadReg(R10)  returns 0x00000000 (0000ms, 0545ms total)
T1B24 008:958 JLINK_ReadReg(R11)  returns 0x00000000 (0000ms, 0545ms total)
T1B24 008:958 JLINK_ReadReg(R12)  returns 0x000000C0 (0000ms, 0545ms total)
T1B24 008:958 JLINK_ReadReg(R13)  returns 0x20000608 (0000ms, 0545ms total)
T1B24 008:958 JLINK_ReadReg(R14)  returns 0xFFFFFFF9 (0000ms, 0545ms total)
T1B24 008:958 JLINK_ReadReg(R15)  returns 0x08001388 (0001ms, 0546ms total)
T1B24 008:959 JLINK_ReadReg(XPSR)  returns 0x01000027 (0000ms, 0546ms total)
T1B24 008:959 JLINK_ReadReg(MSP)  returns 0x20000608 (0000ms, 0546ms total)
T1B24 008:959 JLINK_ReadReg(PSP)  returns 0x20000800 (0000ms, 0546ms total)
T1B24 008:959 JLINK_ReadReg(CFBP)  returns 0x00000000 (0000ms, 0546ms total)
T12B0 008:959 JLINK_ReadMem (0x20000620, 0x0004 Bytes, ...) -- CPU_ReadMem(64 bytes @ 0x20000600) -- Updating C cache (64 bytes @ 0x20000600) -- Read from C cache (4 bytes @ 0x20000620) -- Data:  CA 03 00 08  returns 0x00 (0002ms, 0548ms total)
T12B0 008:961 JLINK_ReadMem (0x20000624, 0x0004 Bytes, ...) -- Read from C cache (4 bytes @ 0x20000624) -- Data:  00 00 00 61  returns 0x00 (0000ms, 0548ms total)
T12B0 008:961 JLINK_ReadMem (0x2000061C, 0x0004 Bytes, ...) -- Read from C cache (4 bytes @ 0x2000061C) -- Data:  E1 12 00 08  returns 0x00 (0000ms, 0548ms total)
T12B0 008:961 JLINK_ReadMem (0xE000ED28, 0x0004 Bytes, ...) -- CPU_ReadMem(4 bytes @ 0xE000ED28) -- Data:  00 00 00 00  returns 0x00 (0002ms, 0550ms total)
T12B0 008:963 JLINK_ReadMem (0x20000634, 0x0004 Bytes, ...) -- Read from C cache (4 bytes @ 0x20000634) -- Data:  E1 12 00 08  returns 0x00 (0000ms, 0550ms total)
T12B0 008:963 JLINK_ReadMem (0x20000628, 0x0004 Bytes, ...) -- Read from C cache (4 bytes @ 0x20000628) -- Data:  38 14 00 08  returns 0x00 (0000ms, 0550ms total)
T12B0 008:963 JLINK_ReadMem (0x2000062C, 0x0004 Bytes, ...) -- Read from C cache (4 bytes @ 0x2000062C) -- Data:  38 14 00 08  returns 0x00 (0000ms, 0550ms total)
T12B0 008:963 JLINK_ReadMem (0x20000630, 0x0004 Bytes, ...) -- Read from C cache (4 bytes @ 0x20000630) -- Data:  00 00 00 00  returns 0x00 (0000ms, 0550ms total)
T12B0 008:963 JLINK_ReadMem (0x2000065C, 0x0004 Bytes, ...) -- CPU_ReadMem(64 bytes @ 0x20000640) -- Updating C cache (64 bytes @ 0x20000640) -- Read from C cache (4 bytes @ 0x2000065C) -- Data:  65 10 00 08  returns 0x00 (0002ms, 0552ms total)
T12B0 008:965 JLINK_ReadMemU32(0xE0001004, 0x0001 Items, ...) -- CPU_ReadMem(4 bytes @ 0xE0001004) -- Data:  1E 30 00 00  returns 0x01 (0001ms, 0553ms total)
T1B24 009:583 JLINK_Step() -- CPU_ReadMem(64 bytes @ 0x08001380) -- Updating C cache (64 bytes @ 0x08001380) -- Read from C cache (2 bytes @ 0x08001388) -- Simulated  returns 0x00 (0004ms, 0557ms total)
T1B24 009:587 JLINK_ReadReg(R15)  returns 0x0800138A (0000ms, 0557ms total)
T1B24 009:587 JLINK_ReadReg(XPSR)  returns 0x41000027 (0000ms, 0557ms total)
T1B24 009:587 JLINK_SetBPEx(Addr = 0x080003CA, Type = 0xFFFFFFF2)  returns 0x00000013 (0000ms, 0557ms total)
T1B24 009:587 JLINK_SetBPEx(Addr = 0x08001390, Type = 0xFFFFFFF2)  returns 0x00000014 (0000ms, 0557ms total)
T1B24 009:587 JLINK_SetBPEx(Addr = 0x08001388, Type = 0xFFFFFFF2)  returns 0x00000015 (0000ms, 0557ms total)
T1B24 009:587 JLINK_Go() (0003ms, 0560ms total)
T1B24 009:690 JLINK_IsHalted()  returns TRUE (0005ms, 0565ms total)
T1B24 009:695 JLINK_Halt()  returns 0x00 (0000ms, 0560ms total)
T1B24 009:695 JLINK_IsHalted()  returns TRUE (0000ms, 0560ms total)
T1B24 009:695 JLINK_IsHalted()  returns TRUE (0000ms, 0560ms total)
T1B24 009:695 JLINK_IsHalted()  returns TRUE (0000ms, 0560ms total)
T1B24 009:695 JLINK_ReadReg(R15)  returns 0x080003CA (0001ms, 0561ms total)
T1B24 009:696 JLINK_ReadReg(XPSR)  returns 0x61000000 (0000ms, 0561ms total)
T1B24 009:696 JLINK_ClrBPEx(BPHandle = 0x00000013)  returns 0x00 (0000ms, 0561ms total)
T1B24 009:696 JLINK_ClrBPEx(BPHandle = 0x00000014)  returns 0x00 (0000ms, 0561ms total)
T1B24 009:696 JLINK_ClrBPEx(BPHandle = 0x00000015)  returns 0x00 (0000ms, 0561ms total)
T1B24 009:696 JLINK_ReadMemU32(0xE000ED30, 0x0001 Items, ...) -- CPU_ReadMem(4 bytes @ 0xE000ED30) -- Data:  03 00 00 00  returns 0x01 (0001ms, 0562ms total)
T1B24 009:697 JLINK_ReadMemU32(0xE0001028, 0x0001 Items, ...) -- CPU_ReadMem(4 bytes @ 0xE0001028) -- Data:  00 00 00 00  returns 0x01 (0001ms, 0563ms total)
T1B24 009:698 JLINK_ReadMemU32(0xE0001038, 0x0001 Items, ...) -- CPU_ReadMem(4 bytes @ 0xE0001038) -- Data:  00 02 00 00  returns 0x01 (0001ms, 0564ms total)
T1B24 009:699 JLINK_ReadMemU32(0xE0001048, 0x0001 Items, ...) -- CPU_ReadMem(4 bytes @ 0xE0001048) -- Data:  00 00 00 00  returns 0x01 (0001ms, 0565ms total)
T1B24 009:700 JLINK_ReadMemU32(0xE0001058, 0x0001 Items, ...) -- CPU_ReadMem(4 bytes @ 0xE0001058) -- Data:  00 00 00 00  returns 0x01 (0002ms, 0567ms total)
T1B24 009:702 JLINK_ReadReg(R0)  returns 0x20000644 (0000ms, 0567ms total)
T1B24 009:702 JLINK_ReadReg(R1)  returns 0x00000000 (0000ms, 0567ms total)
T1B24 009:702 JLINK_ReadReg(R2)  returns 0x00000000 (0000ms, 0567ms total)
T1B24 009:702 JLINK_ReadReg(R3)  returns 0xFFFFFFFD (0000ms, 0567ms total)
T1B24 009:702 JLINK_ReadReg(R4)  returns 0x00800000 (0000ms, 0567ms total)
T1B24 009:702 JLINK_ReadReg(R5)  returns 0xE000E000 (0001ms, 0568ms total)
T1B24 009:703 JLINK_ReadReg(R6)  returns 0xE000E000 (0000ms, 0568ms total)
T1B24 009:703 JLINK_ReadReg(R7)  returns 0x00000000 (0000ms, 0568ms total)
T1B24 009:703 JLINK_ReadReg(R8)  returns 0x00000000 (0000ms, 0568ms total)
T1B24 009:703 JLINK_ReadReg(R9)  returns 0x20000160 (0000ms, 0568ms total)
T1B24 009:703 JLINK_ReadReg(R10)  returns 0x00000000 (0000ms, 0568ms total)
T1B24 009:703 JLINK_ReadReg(R11)  returns 0x00000000 (0000ms, 0568ms total)
T1B24 009:703 JLINK_ReadReg(R12)  returns 0x000000C0 (0000ms, 0568ms total)
T1B24 009:703 JLINK_ReadReg(R13)  returns 0x20000628 (0000ms, 0568ms total)
T1B24 009:703 JLINK_ReadReg(R14)  returns 0x080012E1 (0000ms, 0568ms total)
T1B24 009:703 JLINK_ReadReg(R15)  returns 0x080003CA (0000ms, 0568ms total)
T1B24 009:703 JLINK_ReadReg(XPSR)  returns 0x61000000 (0000ms, 0568ms total)
T1B24 009:703 JLINK_ReadReg(MSP)  returns 0x20000628 (0001ms, 0569ms total)
T1B24 009:704 JLINK_ReadReg(PSP)  returns 0x20000800 (0000ms, 0569ms total)
T1B24 009:704 JLINK_ReadReg(CFBP)  returns 0x00000000 (0000ms, 0569ms total)
T12B0 009:707 JLINK_ReadMem (0x20000634, 0x0004 Bytes, ...) -- CPU_ReadMem(64 bytes @ 0x20000600) -- Updating C cache (64 bytes @ 0x20000600) -- Read from C cache (4 bytes @ 0x20000634) -- Data:  E1 12 00 08  returns 0x00 (0001ms, 0570ms total)
T12B0 009:709 JLINK_ReadMem (0x20000628, 0x0004 Bytes, ...) -- Read from C cache (4 bytes @ 0x20000628) -- Data:  38 14 00 08  returns 0x00 (0000ms, 0571ms total)
T12B0 009:709 JLINK_ReadMem (0x2000062C, 0x0004 Bytes, ...) -- Read from C cache (4 bytes @ 0x2000062C) -- Data:  38 14 00 08  returns 0x00 (0000ms, 0571ms total)
T12B0 009:709 JLINK_ReadMem (0x20000630, 0x0004 Bytes, ...) -- Read from C cache (4 bytes @ 0x20000630) -- Data:  00 00 00 00  returns 0x00 (0000ms, 0571ms total)
T12B0 009:709 JLINK_ReadMem (0x2000065C, 0x0004 Bytes, ...) -- CPU_ReadMem(64 bytes @ 0x20000640) -- Updating C cache (64 bytes @ 0x20000640) -- Read from C cache (4 bytes @ 0x2000065C) -- Data:  65 10 00 08  returns 0x00 (0002ms, 0573ms total)
T12B0 009:712 JLINK_ReadMemU32(0xE0001004, 0x0001 Items, ...) -- CPU_ReadMem(4 bytes @ 0xE0001004) -- Data:  3C 30 00 00  returns 0x01 (0001ms, 0574ms total)
T12B0 009:723 JLINK_ReadMem (0x080003B6, 0x0002 Bytes, ...) -- CPU_ReadMem(64 bytes @ 0x08000380) -- Updating C cache (64 bytes @ 0x08000380) -- Read from C cache (2 bytes @ 0x080003B6) -- Data:  04 78  returns 0x00 (0002ms, 0576ms total)
